
T57F4 000:003 SEGGER J-Link V6.30f Log File (0000ms, 0003ms total)
T57F4 000:003 DLL Compiled: Mar  2 2018 17:29:18 (0000ms, 0003ms total)
T57F4 000:003 Logging started @ 2022-09-30 21:19 (0000ms, 0003ms total)
T57F4 000:003 JLINK_SetWarnOutHandler(...) (0000ms, 0003ms total)
T57F4 000:003 JLINK_OpenEx(...)
Firmware: J-Link V9 compiled Dec  2 2016 15:35:20
Hardware: V9.20
S/N: 269200585
Feature(s): GDB, RDI, FlashBP, FlashDL, JFlash, RDDI
TELNET listener socket opened on port 19021WEBSRV 
Starting webserver (2249ms, 2252ms total)
T57F4 000:003 WEBSRV Webserver running on local port 19080 (2249ms, 2252ms total)
T57F4 000:003   returns O.K. (2249ms, 2252ms total)
T57F4 002:252 JLINK_GetEmuCaps()  returns 0xB9FF7BBF (0000ms, 2252ms total)
T57F4 002:252 JLINK_TIF_GetAvailable(...) (0000ms, 2252ms total)
T57F4 002:252 JLINK_SetErrorOutHandler(...) (0000ms, 2252ms total)
T57F4 002:252 JLINK_ExecCommand("ProjectFile = "C:\Users\86183\Desktop\2023RP_main\RP_Standard\MDK-ARM\JLinkSettings.ini"", ...).   returns 0x00 (0090ms, 2342ms total)
T57F4 002:342 JLINK_ExecCommand("Device = STM32F407VETx", ...). Device "STM32F407VE" selected.  returns 0x00 (0001ms, 2343ms total)
T57F4 002:343 JLINK_ExecCommand("DisableConnectionTimeout", ...).   returns 0x01 (0000ms, 2343ms total)
T57F4 002:343 JLINK_GetHardwareVersion()  returns 0x16760 (0000ms, 2343ms total)
T57F4 002:343 JLINK_GetDLLVersion()  returns 63006 (0000ms, 2343ms total)
T57F4 002:343 JLINK_GetFirmwareString(...) (0000ms, 2343ms total)
T57F4 002:343 JLINK_GetDLLVersion()  returns 63006 (0000ms, 2343ms total)
T57F4 002:343 JLINK_GetCompileDateTime() (0001ms, 2344ms total)
T57F4 002:344 JLINK_GetFirmwareString(...) (0000ms, 2344ms total)
T57F4 002:344 JLINK_GetHardwareVersion()  returns 0x16760 (0000ms, 2344ms total)
T57F4 002:344 JLINK_TIF_Select(JLINKARM_TIF_SWD)  returns 0x00 (0000ms, 2344ms total)
T57F4 002:344 JLINK_SetSpeed(5000) (0000ms, 2344ms total)
T57F4 002:344 JLINK_GetId() >0x10B TIF>Found SW-DP with ID 0x2BA01477 >0x0D TIF> >0x28 TIF> >0x0D TIF> >0x28 TIF> >0x0D TIF> >0x28 TIF> >0x0D TIF> >0x28 TIF> >0x0D TIF> >0x21 TIF> >0x0D TIF> >0x28 TIF> >0x0D TIF> >0x28 TIF> >0x0D TIF> >0x28 TIF> >0x0D TIF> >0x21 TIF> >0x0D TIF> >0x21 TIF> >0x0D TIF> >0x28 TIF> >0x0D TIF> >0x21 TIF> >0x0D TIF> >0x21 TIF> >0x0D TIF> >0x28 TIF> >0x0D TIF> >0x21 TIF> >0x0D TIF> >0x21 TIF> >0x0D TIF> >0x28 TIF> >0x0D TIF> >0x21 TIF> >0x0D TIF> >0x21 TIF> >0x0D TIF> >0x28 TIF>
 >0x0D TIF> >0x21 TIF> >0x0D TIF> >0x21 TIF> >0x0D TIF> >0x28 TIF> >0x0D TIF> >0x21 TIF> >0x0D TIF> >0x21 TIF> >0x10B TIF>Found SW-DP with ID 0x2BA01477 >0x0D TIF> >0x28 TIF> >0x0D TIF> >0x28 TIF> >0x0D TIF> >0x28 TIF> >0x0D TIF> >0x28 TIF> >0x0D TIF> >0x21 TIF> >0x0D TIF> >0x28 TIF>Scanning AP map to find all available APs >0x0D TIF> >0x28 TIF> >0x0D TIF> >0x21 TIF> >0x0D TIF> >0x21 TIF> >0x0D TIF> >0x28 TIF> >0x0D TIF> >0x21 TIF> >0x0D TIF> >0x21 TIF>
AP[1]: Stopped AP scan as end of AP map has been reachedAP[0]: AHB-AP (IDR: 0x24770011)Iterating through AP map to find AHB-AP to use >0x42 TIF> >0x28 TIF> >0x0D TIF> >0x28 TIF> >0x0D TIF> >0x21 TIF> >0x0D TIF> >0x21 TIF> >0x42 TIF> >0x28 TIF> >0x0D TIF> >0x28 TIF> >0x0D TIF> >0x28 TIF> >0x0D TIF> >0x21 TIF> >0x0D TIF> >0x21 TIF>AP[0]: Core foundAP[0]: AHB-AP ROM base: 0xE00FF000 >0x0D TIF> >0x28 TIF> >0x0D TIF> >0x28 TIF> >0x0D TIF> >0x28 TIF> >0x0D TIF> >0x21 TIF> >0x0D TIF> >0x21 TIF>
CPUID register: 0x410FC241. Implementer code: 0x41 (ARM)Found Cortex-M4 r0p1, Little endian. -- CPU_ReadMem(4 bytes @ 0xE000EDF0) -- CPU_WriteMem(4 bytes @ 0xE000EDF0) -- CPU_ReadMem(4 bytes @ 0xE0002000)FPUnit: 6 code (BP) slots and 2 literal slots -- CPU_ReadMem(4 bytes @ 0xE000EDFC) -- CPU_WriteMem(4 bytes @ 0xE000EDFC) -- CPU_ReadMem(4 bytes @ 0xE0001000) -- CPU_WriteMem(4 bytes @ 0xE0001000) -- CPU_ReadMem(4 bytes @ 0xE000ED88) -- CPU_WriteMem(4 bytes @ 0xE000ED88)
 -- CPU_ReadMem(4 bytes @ 0xE000ED88) -- CPU_WriteMem(4 bytes @ 0xE000ED88)CoreSight components:ROMTbl[0] @ E00FF000 -- CPU_ReadMem(16 bytes @ 0xE00FF000) -- CPU_ReadMem(16 bytes @ 0xE000EFF0) -- CPU_ReadMem(16 bytes @ 0xE000EFE0)ROMTbl[0][0]: E000E000, CID: B105E00D, PID: 000BB00C SCS-M7 -- CPU_ReadMem(16 bytes @ 0xE0001FF0) -- CPU_ReadMem(16 bytes @ 0xE0001FE0)ROMTbl[0][1]: E0001000, CID: B105E00D, PID: 003BB002 DWT -- CPU_ReadMem(16 bytes @ 0xE0002FF0) -- CPU_ReadMem(16 bytes @ 0xE0002FE0)
ROMTbl[0][2]: E0002000, CID: B105E00D, PID: 002BB003 FPB -- CPU_ReadMem(16 bytes @ 0xE0000FF0) -- CPU_ReadMem(16 bytes @ 0xE0000FE0)ROMTbl[0][3]: E0000000, CID: B105E00D, PID: 003BB001 ITM -- CPU_ReadMem(16 bytes @ 0xE00FF010) -- CPU_ReadMem(16 bytes @ 0xE0040FF0) -- CPU_ReadMem(16 bytes @ 0xE0040FE0)ROMTbl[0][4]: E0040000, CID: B105900D, PID: 000BB9A1 TPIU -- CPU_ReadMem(16 bytes @ 0xE0041FF0) -- CPU_ReadMem(16 bytes @ 0xE0041FE0)ROMTbl[0][5]: E0041000, CID: B105900D, PID: 000BB925 ETM >0x0D TIF>
 >0x21 TIF>  returns 0x2BA01477 (0130ms, 2474ms total)
T57F4 002:474 JLINK_GetDLLVersion()  returns 63006 (0000ms, 2474ms total)
T57F4 002:474 JLINK_CORE_GetFound()  returns 0xE0000FF (0000ms, 2474ms total)
T57F4 002:474 JLINK_GetDebugInfo(0x100 = JLINKARM_ROM_TABLE_ADDR_INDEX) -- Value=0xE00FF000  returns 0x00 (0000ms, 2474ms total)
T57F4 002:474 JLINK_GetDebugInfo(0x100 = JLINKARM_ROM_TABLE_ADDR_INDEX) -- Value=0xE00FF000  returns 0x00 (0000ms, 2474ms total)
T57F4 002:474 JLINK_GetDebugInfo(0x101 = JLINKARM_DEBUG_INFO_ETM_ADDR_INDEX) -- Value=0xE0041000  returns 0x00 (0000ms, 2474ms total)
T57F4 002:474 JLINK_ReadMemEx(0xE0041FD0, 0x0020 Bytes, ..., Flags = 0x02000004) -- CPU_ReadMem(32 bytes @ 0xE0041FD0) - Data: 04 00 00 00 00 00 00 00 00 00 00 00 00 00 00 00 ...  returns 0x20 (0001ms, 2475ms total)
T57F4 002:475 JLINK_GetDebugInfo(0x102 = JLINKARM_DEBUG_INFO_MTB_ADDR_INDEX) -- Value=0x00000000  returns 0x00 (0000ms, 2475ms total)
T57F4 002:475 JLINK_GetDebugInfo(0x103 = JLINKARM_DEBUG_INFO_TPIU_ADDR_INDEX) -- Value=0xE0040000  returns 0x00 (0000ms, 2475ms total)
T57F4 002:475 JLINK_GetDebugInfo(0x104 = JLINKARM_DEBUG_INFO_ITM_ADDR_INDEX) -- Value=0xE0000000  returns 0x00 (0000ms, 2475ms total)
T57F4 002:475 JLINK_GetDebugInfo(0x105 = JLINKARM_DEBUG_INFO_DWT_ADDR_INDEX) -- Value=0xE0001000  returns 0x00 (0000ms, 2475ms total)
T57F4 002:475 JLINK_GetDebugInfo(0x106 = JLINKARM_DEBUG_INFO_FPB_ADDR_INDEX) -- Value=0xE0002000  returns 0x00 (0000ms, 2475ms total)
T57F4 002:475 JLINK_GetDebugInfo(0x107 = JLINKARM_DEBUG_INFO_NVIC_ADDR_INDEX) -- Value=0xE000E000  returns 0x00 (0000ms, 2475ms total)
T57F4 002:475 JLINK_GetDebugInfo(0x10C = JLINKARM_DEBUG_INFO_DBG_ADDR_INDEX) -- Value=0xE000EDF0  returns 0x00 (0000ms, 2475ms total)
T57F4 002:475 JLINK_GetDebugInfo(0x01 = Unknown) -- Value=0x00000001  returns 0x00 (0000ms, 2475ms total)
T57F4 002:475 JLINK_ReadMemU32(0xE000ED00, 0x0001 Items, ...) -- CPU_ReadMem(4 bytes @ 0xE000ED00) - Data: 41 C2 0F 41  returns 0x01 (0001ms, 2476ms total)
T57F4 002:476 JLINK_GetDebugInfo(0x10F = JLINKARM_DEBUG_INFO_HAS_CORTEX_M_SECURITY_EXT_INDEX) -- Value=0x00000000  returns 0x00 (0000ms, 2476ms total)
T57F4 002:476 JLINK_SetResetType(JLINKARM_CM3_RESET_TYPE_NORMAL)  returns JLINKARM_CM3_RESET_TYPE_NORMAL (0000ms, 2476ms total)
T57F4 002:476 JLINK_Reset() -- CPU is running -- CPU_WriteMem(4 bytes @ 0xE000EDF0) -- CPU is running -- CPU_WriteMem(4 bytes @ 0xE000EDFC)Reset: Halt core after reset via DEMCR.VC_CORERESET. >0x35 TIF>Reset: Reset device via AIRCR.SYSRESETREQ. -- CPU is running -- CPU_WriteMem(4 bytes @ 0xE000ED0C) >0x0D TIF> >0x28 TIF> -- CPU_ReadMem(4 bytes @ 0xE000EDF0) -- CPU_ReadMem(4 bytes @ 0xE000EDF0) -- CPU is running -- CPU_WriteMem(4 bytes @ 0xE000EDF0) -- CPU is running -- CPU_WriteMem(4 bytes @ 0xE000EDFC)
 -- CPU_ReadMem(4 bytes @ 0xE000EDF0) -- CPU_WriteMem(4 bytes @ 0xE0002000) -- CPU_ReadMem(4 bytes @ 0xE000EDFC) -- CPU_ReadMem(4 bytes @ 0xE0001000) (0068ms, 2544ms total)
T57F4 002:544 JLINK_ReadReg(R15 (PC))  returns 0x08000330 (0000ms, 2544ms total)
T57F4 002:544 JLINK_ReadReg(XPSR)  returns 0x01000000 (0000ms, 2544ms total)
T57F4 002:544 JLINK_Halt()  returns 0x00 (0000ms, 2544ms total)
T57F4 002:544 JLINK_ReadMemU32(0xE000EDF0, 0x0001 Items, ...) -- CPU_ReadMem(4 bytes @ 0xE000EDF0) - Data: 03 00 03 00  returns 0x01 (0001ms, 2545ms total)
T57F4 002:545 JLINK_WriteU32(0xE000EDF0, 0xA05F0003) -- CPU_WriteMem(4 bytes @ 0xE000EDF0)  returns 0x00 (0001ms, 2546ms total)
T57F4 002:546 JLINK_WriteU32(0xE000EDFC, 0x01000000) -- CPU_WriteMem(4 bytes @ 0xE000EDFC)  returns 0x00 (0000ms, 2546ms total)
T57F4 002:546 JLINK_GetHWStatus(...)  returns 0x00 (0001ms, 2547ms total)
T57F4 002:547 JLINK_GetNumBPUnits(Type = 0xFFFFFF00)  returns 0x06 (0000ms, 2547ms total)
T57F4 002:547 JLINK_GetNumBPUnits(Type = 0xF0)  returns 0x2000 (0000ms, 2547ms total)
T57F4 002:547 JLINK_GetNumWPUnits()  returns 0x04 (0000ms, 2547ms total)
T57F4 002:547 JLINK_GetSpeed()  returns 0xFA0 (0000ms, 2547ms total)
T57F4 002:547 JLINK_ReadMemU32(0xE000E004, 0x0001 Items, ...) -- CPU_ReadMem(4 bytes @ 0xE000E004) - Data: 02 00 00 00  returns 0x01 (0001ms, 2548ms total)
T57F4 002:548 JLINK_ReadMemU32(0xE000E004, 0x0001 Items, ...) -- CPU_ReadMem(4 bytes @ 0xE000E004) - Data: 02 00 00 00  returns 0x01 (0000ms, 2548ms total)
T57F4 002:548 JLINK_WriteMemEx(0xE0001000, 0x001C Bytes, ..., Flags = 0x02000004) - Data: 01 00 00 00 00 00 00 00 00 00 00 00 00 00 00 00 ... -- CPU_WriteMem(28 bytes @ 0xE0001000)  returns 0x1C (0002ms, 2550ms total)
T57F4 002:550 JLINK_ReadReg(R15 (PC))  returns 0x08000330 (0000ms, 2550ms total)
T57F4 002:550 JLINK_ReadReg(XPSR)  returns 0x01000000 (0000ms, 2550ms total)
T57F4 002:557 JLINK_ReadMemEx(0xE0001004, 0x0004 Bytes, ..., Flags = 0x02000000) - Data: 00 00 00 00  returns 0x04 (0000ms, 2550ms total)
T57F4 002:666 JLINK_SetResetType(JLINKARM_CM3_RESET_TYPE_NORMAL)  returns JLINKARM_CM3_RESET_TYPE_NORMAL (0000ms, 2550ms total)
T57F4 002:666 JLINK_Reset() -- CPU_WriteMem(4 bytes @ 0xE000EDF0) -- CPU_WriteMem(4 bytes @ 0xE000EDFC)Reset: Halt core after reset via DEMCR.VC_CORERESET. >0x35 TIF>Reset: Reset device via AIRCR.SYSRESETREQ. -- CPU_WriteMem(4 bytes @ 0xE000ED0C) >0x0D TIF> >0x28 TIF> -- CPU_ReadMem(4 bytes @ 0xE000EDF0) -- CPU_ReadMem(4 bytes @ 0xE000EDF0) -- CPU_WriteMem(4 bytes @ 0xE000EDF0) -- CPU_WriteMem(4 bytes @ 0xE000EDFC) -- CPU_ReadMem(4 bytes @ 0xE000EDF0) -- CPU_WriteMem(4 bytes @ 0xE0002000)
 -- CPU_ReadMem(4 bytes @ 0xE000EDFC) -- CPU_ReadMem(4 bytes @ 0xE0001000) (0067ms, 2617ms total)
T57F4 002:733 JLINK_ReadReg(R15 (PC))  returns 0x08000330 (0000ms, 2617ms total)
T57F4 002:733 JLINK_ReadReg(XPSR)  returns 0x01000000 (0000ms, 2617ms total)
T57F4 002:915 JLINK_ReadMemEx(0x08000330, 0x003C Bytes, ..., Flags = 0x02000000) -- CPU_ReadMem(128 bytes @ 0x08000300) -- Updating C cache (128 bytes @ 0x08000300) -- Read from C cache (60 bytes @ 0x08000330) - Data: 09 48 80 47 09 48 00 47 FE E7 FE E7 FE E7 FE E7 ...  returns 0x3C (0001ms, 2618ms total)
T57F4 002:916 JLINK_ReadMemEx(0x08000330, 0x0002 Bytes, ..., Flags = 0x02000000) -- Read from C cache (2 bytes @ 0x08000330) - Data: 09 48  returns 0x02 (0000ms, 2618ms total)
T57F4 002:916 JLINK_ReadMemEx(0x08000332, 0x0002 Bytes, ..., Flags = 0x02000000) -- Read from C cache (2 bytes @ 0x08000332) - Data: 80 47  returns 0x02 (0000ms, 2618ms total)
T57F4 002:916 JLINK_ReadMemEx(0x08000332, 0x0002 Bytes, ..., Flags = 0x02000000) -- Read from C cache (2 bytes @ 0x08000332) - Data: 80 47  returns 0x02 (0000ms, 2618ms total)
T57F4 002:916 JLINK_ReadMemEx(0x08000334, 0x003C Bytes, ..., Flags = 0x02000000) -- Read from C cache (60 bytes @ 0x08000334) - Data: 09 48 00 47 FE E7 FE E7 FE E7 FE E7 FE E7 FE E7 ...  returns 0x3C (0000ms, 2618ms total)
T57F4 002:916 JLINK_ReadMemEx(0x08000334, 0x0002 Bytes, ..., Flags = 0x02000000) -- Read from C cache (2 bytes @ 0x08000334) - Data: 09 48  returns 0x02 (0000ms, 2618ms total)
T57F4 004:219 JLINK_ReadReg(R0)  returns 0x00000000 (0000ms, 2618ms total)
T57F4 004:219 JLINK_ReadReg(R1)  returns 0x00000000 (0000ms, 2618ms total)
T57F4 004:219 JLINK_ReadReg(R2)  returns 0x00000000 (0000ms, 2618ms total)
T57F4 004:219 JLINK_ReadReg(R3)  returns 0x00000000 (0000ms, 2618ms total)
T57F4 004:219 JLINK_ReadReg(R4)  returns 0x00000000 (0000ms, 2618ms total)
T57F4 004:219 JLINK_ReadReg(R5)  returns 0x00000000 (0000ms, 2618ms total)
T57F4 004:219 JLINK_ReadReg(R6)  returns 0x00000000 (0000ms, 2618ms total)
T57F4 004:219 JLINK_ReadReg(R7)  returns 0x00000000 (0000ms, 2618ms total)
T57F4 004:219 JLINK_ReadReg(R8)  returns 0x00000000 (0000ms, 2618ms total)
T57F4 004:219 JLINK_ReadReg(R9)  returns 0x00000000 (0000ms, 2618ms total)
T57F4 004:219 JLINK_ReadReg(R10)  returns 0x00000000 (0000ms, 2618ms total)
T57F4 004:219 JLINK_ReadReg(R11)  returns 0x00000000 (0000ms, 2618ms total)
T57F4 004:219 JLINK_ReadReg(R12)  returns 0x00000000 (0000ms, 2618ms total)
T57F4 004:219 JLINK_ReadReg(R13 (SP))  returns 0x200051A8 (0000ms, 2618ms total)
T57F4 004:219 JLINK_ReadReg(R14)  returns 0xFFFFFFFF (0000ms, 2618ms total)
T57F4 004:219 JLINK_ReadReg(R15 (PC))  returns 0x08000330 (0000ms, 2618ms total)
T57F4 004:219 JLINK_ReadReg(XPSR)  returns 0x01000000 (0000ms, 2618ms total)
T57F4 004:219 JLINK_ReadReg(MSP)  returns 0x200051A8 (0000ms, 2618ms total)
T57F4 004:219 JLINK_ReadReg(PSP)  returns 0x00000000 (0000ms, 2618ms total)
T57F4 004:219 JLINK_ReadReg(CFBP)  returns 0x00000000 (0000ms, 2618ms total)
T57F4 004:219 JLINK_ReadReg(FPSCR)  returns 0x00000000 (0003ms, 2621ms total)
T57F4 004:222 JLINK_ReadReg(FPS0)  returns 0x00000000 (0000ms, 2621ms total)
T57F4 004:222 JLINK_ReadReg(FPS1)  returns 0x00000000 (0000ms, 2621ms total)
T57F4 004:222 JLINK_ReadReg(FPS2)  returns 0x00000000 (0000ms, 2621ms total)
T57F4 004:222 JLINK_ReadReg(FPS3)  returns 0x00000000 (0000ms, 2621ms total)
T57F4 004:222 JLINK_ReadReg(FPS4)  returns 0x00000000 (0000ms, 2621ms total)
T57F4 004:222 JLINK_ReadReg(FPS5)  returns 0x00000000 (0000ms, 2621ms total)
T57F4 004:222 JLINK_ReadReg(FPS6)  returns 0x00000000 (0000ms, 2621ms total)
T57F4 004:222 JLINK_ReadReg(FPS7)  returns 0x00000000 (0000ms, 2621ms total)
T57F4 004:222 JLINK_ReadReg(FPS8)  returns 0x00000000 (0000ms, 2621ms total)
T57F4 004:222 JLINK_ReadReg(FPS9)  returns 0x00000000 (0000ms, 2621ms total)
T57F4 004:223 JLINK_ReadReg(FPS10)  returns 0x00000000 (0000ms, 2622ms total)
T57F4 004:223 JLINK_ReadReg(FPS11)  returns 0x00000000 (0000ms, 2622ms total)
T57F4 004:223 JLINK_ReadReg(FPS12)  returns 0x00000000 (0000ms, 2622ms total)
T57F4 004:223 JLINK_ReadReg(FPS13)  returns 0x00000000 (0000ms, 2622ms total)
T57F4 004:223 JLINK_ReadReg(FPS14)  returns 0x00000000 (0000ms, 2622ms total)
T57F4 004:223 JLINK_ReadReg(FPS15)  returns 0x00000000 (0000ms, 2622ms total)
T57F4 004:223 JLINK_ReadReg(FPS16)  returns 0x00000000 (0000ms, 2622ms total)
T57F4 004:223 JLINK_ReadReg(FPS17)  returns 0x00000000 (0000ms, 2622ms total)
T57F4 004:223 JLINK_ReadReg(FPS18)  returns 0x00000000 (0000ms, 2622ms total)
T57F4 004:223 JLINK_ReadReg(FPS19)  returns 0x00000000 (0000ms, 2622ms total)
T57F4 004:223 JLINK_ReadReg(FPS20)  returns 0x00000000 (0000ms, 2622ms total)
T57F4 004:223 JLINK_ReadReg(FPS21)  returns 0x00000000 (0000ms, 2622ms total)
T57F4 004:223 JLINK_ReadReg(FPS22)  returns 0x00000000 (0000ms, 2622ms total)
T57F4 004:223 JLINK_ReadReg(FPS23)  returns 0x00000000 (0000ms, 2622ms total)
T57F4 004:223 JLINK_ReadReg(FPS24)  returns 0x00000000 (0000ms, 2622ms total)
T57F4 004:223 JLINK_ReadReg(FPS25)  returns 0x00000000 (0000ms, 2622ms total)
T57F4 004:223 JLINK_ReadReg(FPS26)  returns 0x00000000 (0000ms, 2622ms total)
T57F4 004:223 JLINK_ReadReg(FPS27)  returns 0x00000000 (0000ms, 2622ms total)
T57F4 004:223 JLINK_ReadReg(FPS28)  returns 0x00000000 (0000ms, 2622ms total)
T57F4 004:223 JLINK_ReadReg(FPS29)  returns 0x00000000 (0000ms, 2622ms total)
T57F4 004:223 JLINK_ReadReg(FPS30)  returns 0x00000000 (0000ms, 2622ms total)
T57F4 004:223 JLINK_ReadReg(FPS31)  returns 0x00000000 (0000ms, 2622ms total)
T57F4 004:321 JLINK_ReadMemEx(0x20000040, 0x0004 Bytes, ..., Flags = 0x02000000) -- CPU_ReadMem(64 bytes @ 0x20000040) -- Updating C cache (64 bytes @ 0x20000040) -- Read from C cache (4 bytes @ 0x20000040) - Data: 00 00 20 42  returns 0x04 (0000ms, 2622ms total)
T57F4 004:321 JLINK_ReadMemEx(0x20000040, 0x0004 Bytes, ..., Flags = 0x02000000) -- Read from C cache (4 bytes @ 0x20000040) - Data: 00 00 20 42  returns 0x04 (0000ms, 2622ms total)
T57F4 004:321 JLINK_ReadMemEx(0x20000040, 0x0004 Bytes, ..., Flags = 0x02000000) -- Read from C cache (4 bytes @ 0x20000040) - Data: 00 00 20 42  returns 0x04 (0000ms, 2622ms total)
T57F4 004:333 JLINK_ReadMemEx(0x2000003C, 0x0004 Bytes, ..., Flags = 0x02000000) -- CPU_ReadMem(64 bytes @ 0x20000000) -- Updating C cache (64 bytes @ 0x20000000) -- Read from C cache (4 bytes @ 0x2000003C) - Data: 00 00 00 00  returns 0x04 (0001ms, 2623ms total)
T57F4 004:334 JLINK_ReadMemEx(0x2000003C, 0x0004 Bytes, ..., Flags = 0x02000000) -- Read from C cache (4 bytes @ 0x2000003C) - Data: 00 00 00 00  returns 0x04 (0000ms, 2623ms total)
T57F4 004:334 JLINK_ReadMemEx(0x2000003C, 0x0004 Bytes, ..., Flags = 0x02000000) -- Read from C cache (4 bytes @ 0x2000003C) - Data: 00 00 00 00  returns 0x04 (0000ms, 2623ms total)
T54FC 004:396 JLINK_ReadMemEx(0x08000330, 0x0002 Bytes, ..., Flags = 0x02000000) -- Read from C cache (2 bytes @ 0x08000330) - Data: 09 48  returns 0x02 (0000ms, 2623ms total)
T54FC 004:396 JLINK_SetBPEx(Addr = 0x080087DC, Type = 0xFFFFFFF2)  returns 0x00000001 (0000ms, 2623ms total)
T54FC 004:396 JLINK_SetBPEx(Addr = 0x08008820, Type = 0xFFFFFFF2)  returns 0x00000002 (0000ms, 2623ms total)
T54FC 004:396 JLINK_SetBPEx(Addr = 0x08004C14, Type = 0xFFFFFFF2)  returns 0x00000003 (0000ms, 2623ms total)
T54FC 004:396 JLINK_SetBPEx(Addr = 0x08008818, Type = 0xFFFFFFF2)  returns 0x00000004 (0000ms, 2623ms total)
T54FC 004:396 JLINK_SetBPEx(Addr = 0x0800880E, Type = 0xFFFFFFF2)  returns 0x00000005 (0000ms, 2623ms total)
T54FC 004:396 JLINK_Go() -- CPU_WriteMem(4 bytes @ 0xE0002000) -- CPU_WriteMem(4 bytes @ 0xE0002000) -- CPU_WriteMem(4 bytes @ 0xE0002000) -- CPU_WriteMem(4 bytes @ 0xE0002000) -- CPU_WriteMem(4 bytes @ 0xE0002000) -- CPU_ReadMem(4 bytes @ 0xE0001000) -- CPU_WriteMem(4 bytes @ 0xE0002008) -- CPU_WriteMem(4 bytes @ 0xE000200C) -- CPU_WriteMem(4 bytes @ 0xE0002010) -- CPU_WriteMem(4 bytes @ 0xE0002014) -- CPU_WriteMem(4 bytes @ 0xE0002018) -- CPU_WriteMem(4 bytes @ 0xE000201C)
 -- CPU_WriteMem(4 bytes @ 0xE0001004) (0004ms, 2627ms total)
T54FC 004:501 JLINK_IsHalted()  returns TRUE (0001ms, 2628ms total)
T54FC 004:502 JLINK_Halt()  returns 0x00 (0000ms, 2627ms total)
T54FC 004:502 JLINK_IsHalted()  returns TRUE (0000ms, 2627ms total)
T54FC 004:502 JLINK_IsHalted()  returns TRUE (0000ms, 2627ms total)
T54FC 004:502 JLINK_IsHalted()  returns TRUE (0000ms, 2627ms total)
T54FC 004:502 JLINK_ReadReg(R15 (PC))  returns 0x080087DC (0000ms, 2627ms total)
T54FC 004:502 JLINK_ReadReg(XPSR)  returns 0x21000000 (0000ms, 2627ms total)
T54FC 004:502 JLINK_ClrBPEx(BPHandle = 0x00000001)  returns 0x00 (0000ms, 2627ms total)
T54FC 004:502 JLINK_ClrBPEx(BPHandle = 0x00000002)  returns 0x00 (0000ms, 2627ms total)
T54FC 004:502 JLINK_ClrBPEx(BPHandle = 0x00000003)  returns 0x00 (0001ms, 2628ms total)
T54FC 004:503 JLINK_ClrBPEx(BPHandle = 0x00000004)  returns 0x00 (0000ms, 2628ms total)
T54FC 004:503 JLINK_ClrBPEx(BPHandle = 0x00000005)  returns 0x00 (0000ms, 2628ms total)
T54FC 004:503 JLINK_ReadMemU32(0xE000ED30, 0x0001 Items, ...) -- CPU_ReadMem(4 bytes @ 0xE000ED30) - Data: 02 00 00 00  returns 0x01 (0000ms, 2628ms total)
T54FC 004:503 JLINK_ReadMemU32(0xE0001028, 0x0001 Items, ...) -- CPU_ReadMem(4 bytes @ 0xE0001028) - Data: 00 00 00 00  returns 0x01 (0000ms, 2628ms total)
T54FC 004:503 JLINK_ReadMemU32(0xE0001038, 0x0001 Items, ...) -- CPU_ReadMem(4 bytes @ 0xE0001038) - Data: 00 02 00 00  returns 0x01 (0000ms, 2628ms total)
T54FC 004:503 JLINK_ReadMemU32(0xE0001048, 0x0001 Items, ...) -- CPU_ReadMem(4 bytes @ 0xE0001048) - Data: 00 00 00 00  returns 0x01 (0001ms, 2629ms total)
T54FC 004:504 JLINK_ReadMemU32(0xE0001058, 0x0001 Items, ...) -- CPU_ReadMem(4 bytes @ 0xE0001058) - Data: 00 00 00 00  returns 0x01 (0000ms, 2629ms total)
T54FC 004:504 JLINK_ReadReg(R0)  returns 0x20004BA8 (0000ms, 2629ms total)
T54FC 004:504 JLINK_ReadReg(R1)  returns 0x20004DA8 (0000ms, 2629ms total)
T54FC 004:504 JLINK_ReadReg(R2)  returns 0x20004DA8 (0000ms, 2629ms total)
T54FC 004:504 JLINK_ReadReg(R3)  returns 0x20004DA8 (0000ms, 2629ms total)
T54FC 004:504 JLINK_ReadReg(R4)  returns 0x00000000 (0000ms, 2629ms total)
T54FC 004:504 JLINK_ReadReg(R5)  returns 0x20004B48 (0000ms, 2629ms total)
T54FC 004:504 JLINK_ReadReg(R6)  returns 0x00000000 (0000ms, 2629ms total)
T54FC 004:504 JLINK_ReadReg(R7)  returns 0x00000000 (0000ms, 2629ms total)
T54FC 004:504 JLINK_ReadReg(R8)  returns 0x00000000 (0000ms, 2629ms total)
T54FC 004:504 JLINK_ReadReg(R9)  returns 0x00000000 (0000ms, 2629ms total)
T54FC 004:504 JLINK_ReadReg(R10)  returns 0x0800F4BC (0000ms, 2629ms total)
T54FC 004:504 JLINK_ReadReg(R11)  returns 0x00000000 (0000ms, 2629ms total)
T54FC 004:504 JLINK_ReadReg(R12)  returns 0x20004BB8 (0000ms, 2629ms total)
T54FC 004:504 JLINK_ReadReg(R13 (SP))  returns 0x200051A8 (0000ms, 2629ms total)
T54FC 004:504 JLINK_ReadReg(R14)  returns 0x0800025F (0000ms, 2629ms total)
T54FC 004:504 JLINK_ReadReg(R15 (PC))  returns 0x080087DC (0000ms, 2629ms total)
T54FC 004:504 JLINK_ReadReg(XPSR)  returns 0x21000000 (0000ms, 2629ms total)
T54FC 004:504 JLINK_ReadReg(MSP)  returns 0x200051A8 (0000ms, 2629ms total)
T54FC 004:504 JLINK_ReadReg(PSP)  returns 0x00000000 (0000ms, 2629ms total)
T54FC 004:504 JLINK_ReadReg(CFBP)  returns 0x04000000 (0000ms, 2629ms total)
T54FC 004:504 JLINK_ReadReg(FPSCR)  returns 0x03000000 (0003ms, 2632ms total)
T54FC 004:507 JLINK_ReadReg(FPS0)  returns 0x00000000 (0000ms, 2632ms total)
T54FC 004:507 JLINK_ReadReg(FPS1)  returns 0x00000000 (0000ms, 2632ms total)
T54FC 004:507 JLINK_ReadReg(FPS2)  returns 0x00000000 (0000ms, 2632ms total)
T54FC 004:507 JLINK_ReadReg(FPS3)  returns 0x00000000 (0000ms, 2632ms total)
T54FC 004:507 JLINK_ReadReg(FPS4)  returns 0x00000000 (0000ms, 2632ms total)
T54FC 004:507 JLINK_ReadReg(FPS5)  returns 0x00000000 (0000ms, 2632ms total)
T54FC 004:507 JLINK_ReadReg(FPS6)  returns 0x00000000 (0000ms, 2632ms total)
T54FC 004:507 JLINK_ReadReg(FPS7)  returns 0x00000000 (0000ms, 2632ms total)
T54FC 004:507 JLINK_ReadReg(FPS8)  returns 0x00000000 (0000ms, 2632ms total)
T54FC 004:507 JLINK_ReadReg(FPS9)  returns 0x00000000 (0000ms, 2632ms total)
T54FC 004:507 JLINK_ReadReg(FPS10)  returns 0x00000000 (0000ms, 2632ms total)
T54FC 004:507 JLINK_ReadReg(FPS11)  returns 0x00000000 (0000ms, 2632ms total)
T54FC 004:507 JLINK_ReadReg(FPS12)  returns 0x00000000 (0000ms, 2632ms total)
T54FC 004:507 JLINK_ReadReg(FPS13)  returns 0x00000000 (0000ms, 2632ms total)
T54FC 004:507 JLINK_ReadReg(FPS14)  returns 0x00000000 (0000ms, 2632ms total)
T54FC 004:507 JLINK_ReadReg(FPS15)  returns 0x00000000 (0000ms, 2632ms total)
T54FC 004:507 JLINK_ReadReg(FPS16)  returns 0x00000000 (0000ms, 2632ms total)
T54FC 004:507 JLINK_ReadReg(FPS17)  returns 0x00000000 (0000ms, 2632ms total)
T54FC 004:507 JLINK_ReadReg(FPS18)  returns 0x00000000 (0000ms, 2632ms total)
T54FC 004:507 JLINK_ReadReg(FPS19)  returns 0x00000000 (0000ms, 2632ms total)
T54FC 004:507 JLINK_ReadReg(FPS20)  returns 0x00000000 (0000ms, 2632ms total)
T54FC 004:507 JLINK_ReadReg(FPS21)  returns 0x00000000 (0000ms, 2632ms total)
T54FC 004:507 JLINK_ReadReg(FPS22)  returns 0x00000000 (0000ms, 2632ms total)
T54FC 004:507 JLINK_ReadReg(FPS23)  returns 0x00000000 (0000ms, 2632ms total)
T54FC 004:507 JLINK_ReadReg(FPS24)  returns 0x00000000 (0000ms, 2632ms total)
T54FC 004:507 JLINK_ReadReg(FPS25)  returns 0x00000000 (0000ms, 2632ms total)
T54FC 004:507 JLINK_ReadReg(FPS26)  returns 0x00000000 (0000ms, 2632ms total)
T54FC 004:507 JLINK_ReadReg(FPS27)  returns 0x00000000 (0000ms, 2632ms total)
T54FC 004:507 JLINK_ReadReg(FPS28)  returns 0x00000000 (0000ms, 2632ms total)
T54FC 004:507 JLINK_ReadReg(FPS29)  returns 0x00000000 (0000ms, 2632ms total)
T54FC 004:507 JLINK_ReadReg(FPS30)  returns 0x00000000 (0000ms, 2632ms total)
T54FC 004:508 JLINK_ReadReg(FPS31)  returns 0x00000000 (0000ms, 2632ms total)
T54FC 004:508 JLINK_ReadMemEx(0x2000035C, 0x0004 Bytes, ..., Flags = 0x02000000) -- CPU_ReadMem(64 bytes @ 0x20000340) -- Updating C cache (64 bytes @ 0x20000340) -- Read from C cache (4 bytes @ 0x2000035C) - Data: 00 00 00 00  returns 0x04 (0000ms, 2632ms total)
T57F4 004:508 JLINK_ReadMemEx(0xE000ED28, 0x0004 Bytes, ..., Flags = 0x02000000) -- CPU_ReadMem(4 bytes @ 0xE000ED28) - Data: 00 00 00 00  returns 0x04 (0001ms, 2633ms total)
T57F4 004:510 JLINK_ReadMemU32(0xE0001004, 0x0001 Items, ...) -- CPU_ReadMem(4 bytes @ 0xE0001004) - Data: 75 3E 00 00  returns 0x01 (0000ms, 2633ms total)
T57F4 004:513 JLINK_ReadMemEx(0x20000040, 0x0004 Bytes, ..., Flags = 0x02000000) -- CPU_ReadMem(64 bytes @ 0x20000040) -- Updating C cache (64 bytes @ 0x20000040) -- Read from C cache (4 bytes @ 0x20000040) - Data: 00 00 00 00  returns 0x04 (0001ms, 2634ms total)
T57F4 004:515 JLINK_ReadMemEx(0x2000003C, 0x0004 Bytes, ..., Flags = 0x02000000) -- CPU_ReadMem(64 bytes @ 0x20000000) -- Updating C cache (64 bytes @ 0x20000000) -- Read from C cache (4 bytes @ 0x2000003C) - Data: 00 00 00 00  returns 0x04 (0000ms, 2634ms total)
T54FC 007:393 JLINK_ReadMemEx(0x080087DC, 0x0002 Bytes, ..., Flags = 0x02000000) -- CPU_ReadMem(64 bytes @ 0x080087C0) -- Updating C cache (64 bytes @ 0x080087C0) -- Read from C cache (2 bytes @ 0x080087DC) - Data: FA F7  returns 0x02 (0000ms, 2634ms total)
T54FC 007:393 JLINK_SetBPEx(Addr = 0x08008820, Type = 0xFFFFFFF2)  returns 0x00000006 (0000ms, 2634ms total)
T54FC 007:393 JLINK_SetBPEx(Addr = 0x08004C14, Type = 0xFFFFFFF2)  returns 0x00000007 (0000ms, 2634ms total)
T54FC 007:393 JLINK_SetBPEx(Addr = 0x08008818, Type = 0xFFFFFFF2)  returns 0x00000008 (0000ms, 2634ms total)
T54FC 007:393 JLINK_SetBPEx(Addr = 0x0800880E, Type = 0xFFFFFFF2)  returns 0x00000009 (0000ms, 2634ms total)
T54FC 007:393 JLINK_Go() -- CPU_WriteMem(4 bytes @ 0xE0002000) -- CPU_WriteMem(4 bytes @ 0xE0002000) -- CPU_WriteMem(4 bytes @ 0xE0002000) -- CPU_WriteMem(4 bytes @ 0xE0002000) -- CPU_ReadMem(4 bytes @ 0xE0001000) -- CPU_WriteMem(4 bytes @ 0xE0002008) -- CPU_WriteMem(4 bytes @ 0xE000200C) -- CPU_WriteMem(4 bytes @ 0xE0002010) -- CPU_WriteMem(4 bytes @ 0xE0002014) -- CPU_WriteMem(4 bytes @ 0xE0002018) (0003ms, 2637ms total)
T54FC 007:498 JLINK_IsHalted()  returns TRUE (0002ms, 2639ms total)
T54FC 007:500 JLINK_Halt()  returns 0x00 (0000ms, 2637ms total)
T54FC 007:500 JLINK_IsHalted()  returns TRUE (0000ms, 2637ms total)
T54FC 007:500 JLINK_IsHalted()  returns TRUE (0000ms, 2637ms total)
T54FC 007:500 JLINK_IsHalted()  returns TRUE (0000ms, 2637ms total)
T54FC 007:500 JLINK_ReadReg(R15 (PC))  returns 0x0800880E (0000ms, 2637ms total)
T54FC 007:500 JLINK_ReadReg(XPSR)  returns 0x41000000 (0000ms, 2637ms total)
T54FC 007:500 JLINK_ClrBPEx(BPHandle = 0x00000006)  returns 0x00 (0000ms, 2637ms total)
T54FC 007:500 JLINK_ClrBPEx(BPHandle = 0x00000007)  returns 0x00 (0000ms, 2637ms total)
T54FC 007:500 JLINK_ClrBPEx(BPHandle = 0x00000008)  returns 0x00 (0000ms, 2637ms total)
T54FC 007:500 JLINK_ClrBPEx(BPHandle = 0x00000009)  returns 0x00 (0000ms, 2637ms total)
T54FC 007:500 JLINK_ReadMemU32(0xE000ED30, 0x0001 Items, ...) -- CPU_ReadMem(4 bytes @ 0xE000ED30) - Data: 02 00 00 00  returns 0x01 (0001ms, 2638ms total)
T54FC 007:501 JLINK_ReadMemU32(0xE0001028, 0x0001 Items, ...) -- CPU_ReadMem(4 bytes @ 0xE0001028) - Data: 00 00 00 00  returns 0x01 (0000ms, 2638ms total)
T54FC 007:501 JLINK_ReadMemU32(0xE0001038, 0x0001 Items, ...) -- CPU_ReadMem(4 bytes @ 0xE0001038) - Data: 00 02 00 00  returns 0x01 (0001ms, 2639ms total)
T54FC 007:502 JLINK_ReadMemU32(0xE0001048, 0x0001 Items, ...) -- CPU_ReadMem(4 bytes @ 0xE0001048) - Data: 00 00 00 00  returns 0x01 (0000ms, 2639ms total)
T54FC 007:502 JLINK_ReadMemU32(0xE0001058, 0x0001 Items, ...) -- CPU_ReadMem(4 bytes @ 0xE0001058) - Data: 00 00 00 00  returns 0x01 (0000ms, 2639ms total)
T54FC 007:502 JLINK_ReadReg(R0)  returns 0x00000014 (0000ms, 2639ms total)
T54FC 007:502 JLINK_ReadReg(R1)  returns 0x00000014 (0000ms, 2639ms total)
T54FC 007:502 JLINK_ReadReg(R2)  returns 0x00100000 (0000ms, 2639ms total)
T54FC 007:502 JLINK_ReadReg(R3)  returns 0xE000E000 (0000ms, 2639ms total)
T54FC 007:502 JLINK_ReadReg(R4)  returns 0x00000000 (0000ms, 2639ms total)
T54FC 007:502 JLINK_ReadReg(R5)  returns 0x20004B48 (0000ms, 2639ms total)
T54FC 007:502 JLINK_ReadReg(R6)  returns 0x00000000 (0000ms, 2639ms total)
T54FC 007:502 JLINK_ReadReg(R7)  returns 0x00000000 (0000ms, 2639ms total)
T54FC 007:502 JLINK_ReadReg(R8)  returns 0x00000000 (0000ms, 2639ms total)
T54FC 007:502 JLINK_ReadReg(R9)  returns 0x00000000 (0000ms, 2639ms total)
T54FC 007:502 JLINK_ReadReg(R10)  returns 0x0800F4BC (0000ms, 2639ms total)
T54FC 007:502 JLINK_ReadReg(R11)  returns 0x00000000 (0000ms, 2639ms total)
T54FC 007:502 JLINK_ReadReg(R12)  returns 0x00000000 (0000ms, 2639ms total)
T54FC 007:502 JLINK_ReadReg(R13 (SP))  returns 0x200051A8 (0000ms, 2639ms total)
T54FC 007:502 JLINK_ReadReg(R14)  returns 0x08002169 (0000ms, 2639ms total)
T54FC 007:502 JLINK_ReadReg(R15 (PC))  returns 0x0800880E (0000ms, 2639ms total)
T54FC 007:502 JLINK_ReadReg(XPSR)  returns 0x41000000 (0000ms, 2639ms total)
T54FC 007:502 JLINK_ReadReg(MSP)  returns 0x200051A8 (0000ms, 2639ms total)
T54FC 007:502 JLINK_ReadReg(PSP)  returns 0x00000000 (0000ms, 2639ms total)
T54FC 007:502 JLINK_ReadReg(CFBP)  returns 0x04000000 (0000ms, 2639ms total)
T54FC 007:502 JLINK_ReadReg(FPSCR)  returns 0x03000000 (0003ms, 2642ms total)
T54FC 007:505 JLINK_ReadReg(FPS0)  returns 0x00000000 (0000ms, 2642ms total)
T54FC 007:505 JLINK_ReadReg(FPS1)  returns 0x00000000 (0000ms, 2642ms total)
T54FC 007:505 JLINK_ReadReg(FPS2)  returns 0x00000000 (0000ms, 2642ms total)
T54FC 007:505 JLINK_ReadReg(FPS3)  returns 0x00000000 (0000ms, 2642ms total)
T54FC 007:505 JLINK_ReadReg(FPS4)  returns 0x00000000 (0000ms, 2642ms total)
T54FC 007:505 JLINK_ReadReg(FPS5)  returns 0x00000000 (0000ms, 2642ms total)
T54FC 007:505 JLINK_ReadReg(FPS6)  returns 0x00000000 (0000ms, 2642ms total)
T54FC 007:505 JLINK_ReadReg(FPS7)  returns 0x00000000 (0000ms, 2642ms total)
T54FC 007:505 JLINK_ReadReg(FPS8)  returns 0x00000000 (0000ms, 2642ms total)
T54FC 007:505 JLINK_ReadReg(FPS9)  returns 0x00000000 (0000ms, 2642ms total)
T54FC 007:505 JLINK_ReadReg(FPS10)  returns 0x00000000 (0000ms, 2642ms total)
T54FC 007:505 JLINK_ReadReg(FPS11)  returns 0x00000000 (0000ms, 2642ms total)
T54FC 007:505 JLINK_ReadReg(FPS12)  returns 0x00000000 (0000ms, 2642ms total)
T54FC 007:505 JLINK_ReadReg(FPS13)  returns 0x00000000 (0000ms, 2642ms total)
T54FC 007:505 JLINK_ReadReg(FPS14)  returns 0x00000000 (0000ms, 2642ms total)
T54FC 007:505 JLINK_ReadReg(FPS15)  returns 0x00000000 (0000ms, 2642ms total)
T54FC 007:505 JLINK_ReadReg(FPS16)  returns 0x00000000 (0000ms, 2642ms total)
T54FC 007:505 JLINK_ReadReg(FPS17)  returns 0x00000000 (0000ms, 2642ms total)
T54FC 007:505 JLINK_ReadReg(FPS18)  returns 0x00000000 (0000ms, 2642ms total)
T54FC 007:505 JLINK_ReadReg(FPS19)  returns 0x00000000 (0000ms, 2642ms total)
T54FC 007:505 JLINK_ReadReg(FPS20)  returns 0x00000000 (0000ms, 2642ms total)
T54FC 007:505 JLINK_ReadReg(FPS21)  returns 0x00000000 (0000ms, 2642ms total)
T54FC 007:505 JLINK_ReadReg(FPS22)  returns 0x00000000 (0000ms, 2642ms total)
T54FC 007:505 JLINK_ReadReg(FPS23)  returns 0x00000000 (0000ms, 2642ms total)
T54FC 007:505 JLINK_ReadReg(FPS24)  returns 0x00000000 (0000ms, 2642ms total)
T54FC 007:505 JLINK_ReadReg(FPS25)  returns 0x00000000 (0000ms, 2642ms total)
T54FC 007:505 JLINK_ReadReg(FPS26)  returns 0x00000000 (0000ms, 2642ms total)
T54FC 007:505 JLINK_ReadReg(FPS27)  returns 0x00000000 (0000ms, 2642ms total)
T54FC 007:506 JLINK_ReadReg(FPS28)  returns 0x00000000 (0000ms, 2642ms total)
T54FC 007:506 JLINK_ReadReg(FPS29)  returns 0x00000000 (0000ms, 2642ms total)
T54FC 007:506 JLINK_ReadReg(FPS30)  returns 0x00000000 (0000ms, 2642ms total)
T54FC 007:506 JLINK_ReadReg(FPS31)  returns 0x00000000 (0000ms, 2642ms total)
T54FC 007:506 JLINK_ReadMemEx(0x2000035C, 0x0004 Bytes, ..., Flags = 0x02000000) -- CPU_ReadMem(64 bytes @ 0x20000340) -- Updating C cache (64 bytes @ 0x20000340) -- Read from C cache (4 bytes @ 0x2000035C) - Data: 00 00 00 00  returns 0x04 (0001ms, 2643ms total)
T57F4 007:507 JLINK_ReadMemEx(0xE000ED28, 0x0004 Bytes, ..., Flags = 0x02000000) -- CPU_ReadMem(4 bytes @ 0xE000ED28) - Data: 00 00 00 00  returns 0x04 (0000ms, 2643ms total)
T57F4 007:507 JLINK_ReadMemU32(0xE0001004, 0x0001 Items, ...) -- CPU_ReadMem(4 bytes @ 0xE0001004) - Data: EC AE 00 00  returns 0x01 (0000ms, 2643ms total)
T57F4 007:509 JLINK_ReadMemEx(0x20000040, 0x0004 Bytes, ..., Flags = 0x02000000) -- CPU_ReadMem(64 bytes @ 0x20000040) -- Updating C cache (64 bytes @ 0x20000040) -- Read from C cache (4 bytes @ 0x20000040) - Data: 00 00 00 00  returns 0x04 (0001ms, 2644ms total)
T57F4 007:512 JLINK_ReadMemEx(0x2000003C, 0x0004 Bytes, ..., Flags = 0x02000000) -- CPU_ReadMem(64 bytes @ 0x20000000) -- Updating C cache (64 bytes @ 0x20000000) -- Read from C cache (4 bytes @ 0x2000003C) - Data: 00 00 00 00  returns 0x04 (0001ms, 2645ms total)
T57F4 007:517 JLINK_ReadMemEx(0x0800880E, 0x0002 Bytes, ..., Flags = 0x02000000) -- CPU_ReadMem(64 bytes @ 0x08008800) -- Updating C cache (64 bytes @ 0x08008800) -- Read from C cache (2 bytes @ 0x0800880E) - Data: 07 48  returns 0x02 (0001ms, 2646ms total)
T57F4 007:518 JLINK_ReadMemEx(0x08008810, 0x003C Bytes, ..., Flags = 0x02000000) -- CPU_ReadMem(64 bytes @ 0x08008840) -- Updating C cache (64 bytes @ 0x08008840) -- Read from C cache (60 bytes @ 0x08008810) - Data: F9 F7 5E FC F8 F7 90 FF FB F7 02 FF FB F7 12 FE ...  returns 0x3C (0000ms, 2646ms total)
T57F4 007:518 JLINK_ReadMemEx(0x08008810, 0x0002 Bytes, ..., Flags = 0x02000000) -- Read from C cache (2 bytes @ 0x08008810) - Data: F9 F7  returns 0x02 (0000ms, 2646ms total)
T57F4 007:518 JLINK_ReadMemEx(0x08008810, 0x003C Bytes, ..., Flags = 0x02000000) -- Read from C cache (60 bytes @ 0x08008810) - Data: F9 F7 5E FC F8 F7 90 FF FB F7 02 FF FB F7 12 FE ...  returns 0x3C (0000ms, 2646ms total)
T57F4 007:518 JLINK_ReadMemEx(0x08008810, 0x0002 Bytes, ..., Flags = 0x02000000) -- Read from C cache (2 bytes @ 0x08008810) - Data: F9 F7  returns 0x02 (0001ms, 2647ms total)
T57F4 007:519 JLINK_ReadMemEx(0x08008812, 0x0002 Bytes, ..., Flags = 0x02000000) -- Read from C cache (2 bytes @ 0x08008812) - Data: 5E FC  returns 0x02 (0000ms, 2647ms total)
T54FC 011:760 JLINK_ReadMemEx(0x0800880E, 0x0002 Bytes, ..., Flags = 0x02000000) -- Read from C cache (2 bytes @ 0x0800880E) - Data: 07 48  returns 0x02 (0000ms, 2647ms total)
T54FC 011:760 JLINK_SetBPEx(Addr = 0x08008820, Type = 0xFFFFFFF2)  returns 0x0000000A (0000ms, 2647ms total)
T54FC 011:760 JLINK_SetBPEx(Addr = 0x08004C14, Type = 0xFFFFFFF2)  returns 0x0000000B (0000ms, 2647ms total)
T54FC 011:760 JLINK_Go() -- CPU_WriteMem(4 bytes @ 0xE0002000) -- CPU_WriteMem(4 bytes @ 0xE0002000) -- CPU_ReadMem(4 bytes @ 0xE0001000) -- CPU_WriteMem(4 bytes @ 0xE0002010) -- CPU_WriteMem(4 bytes @ 0xE0002014) (0002ms, 2649ms total)
T54FC 011:864 JLINK_IsHalted()  returns FALSE (0000ms, 2649ms total)
T54FC 011:964 JLINK_IsHalted()  returns FALSE (0000ms, 2649ms total)
T54FC 012:065 JLINK_IsHalted()  returns FALSE (0000ms, 2649ms total)
T54FC 012:167 JLINK_IsHalted()  returns FALSE (0000ms, 2649ms total)
T54FC 012:268 JLINK_IsHalted()  returns FALSE (0000ms, 2649ms total)
T54FC 012:368 JLINK_ReadMemU32(0xE0001004, 0x0001 Items, ...) -- CPU_ReadMem(4 bytes @ 0xE0001004) - Data: E3 98 13 06  returns 0x01 (0000ms, 2649ms total)
T57F4 012:373 JLINK_ReadMemEx(0x20000040, 0x0004 Bytes, ..., Flags = 0x02000000) -- CPU_ReadMem(4 bytes @ 0x20000040) - Data: 00 00 00 00  returns 0x04 (0001ms, 2650ms total)
T57F4 012:377 JLINK_ReadMemEx(0x2000003C, 0x0004 Bytes, ..., Flags = 0x02000000) -- CPU_ReadMem(4 bytes @ 0x2000003C) - Data: 00 00 00 00  returns 0x04 (0001ms, 2651ms total)
T54FC 012:382 JLINK_IsHalted()  returns FALSE (0000ms, 2651ms total)
T54FC 012:484 JLINK_IsHalted()  returns FALSE (0000ms, 2651ms total)
T54FC 012:585 JLINK_IsHalted()  returns FALSE (0000ms, 2651ms total)
T54FC 012:686 JLINK_IsHalted()  returns FALSE (0000ms, 2651ms total)
T54FC 012:786 JLINK_IsHalted()  returns FALSE (0000ms, 2651ms total)
T54FC 012:887 JLINK_ReadMemU32(0xE0001004, 0x0001 Items, ...) - Data: E3 98 13 06  returns 0x01 (0000ms, 2651ms total)
T57F4 012:889 JLINK_ReadMemEx(0x20000040, 0x0004 Bytes, ..., Flags = 0x02000000) -- CPU_ReadMem(4 bytes @ 0x20000040) - Data: 00 00 00 00  returns 0x04 (0001ms, 2652ms total)
T57F4 012:891 JLINK_ReadMemEx(0x2000003C, 0x0004 Bytes, ..., Flags = 0x02000000) -- CPU_ReadMem(4 bytes @ 0x2000003C) - Data: 00 00 00 00  returns 0x04 (0001ms, 2653ms total)
T54FC 012:894 JLINK_IsHalted()  returns FALSE (0000ms, 2653ms total)
T54FC 012:995 JLINK_IsHalted()  returns FALSE (0000ms, 2653ms total)
T54FC 013:096 JLINK_IsHalted()  returns TRUE (0002ms, 2655ms total)
T54FC 013:098 JLINK_Halt()  returns 0x00 (0000ms, 2653ms total)
T54FC 013:098 JLINK_IsHalted()  returns TRUE (0000ms, 2653ms total)
T54FC 013:098 JLINK_IsHalted()  returns TRUE (0000ms, 2653ms total)
T54FC 013:098 JLINK_IsHalted()  returns TRUE (0000ms, 2653ms total)
T54FC 013:098 JLINK_ReadReg(R15 (PC))  returns 0x08008820 (0000ms, 2653ms total)
T54FC 013:098 JLINK_ReadReg(XPSR)  returns 0x61000000 (0000ms, 2653ms total)
T54FC 013:098 JLINK_ClrBPEx(BPHandle = 0x0000000A)  returns 0x00 (0000ms, 2653ms total)
T54FC 013:098 JLINK_ClrBPEx(BPHandle = 0x0000000B)  returns 0x00 (0000ms, 2653ms total)
T54FC 013:098 JLINK_ReadMemU32(0xE000ED30, 0x0001 Items, ...) -- CPU_ReadMem(4 bytes @ 0xE000ED30) - Data: 02 00 00 00  returns 0x01 (0001ms, 2654ms total)
T54FC 013:099 JLINK_ReadMemU32(0xE0001028, 0x0001 Items, ...) -- CPU_ReadMem(4 bytes @ 0xE0001028) - Data: 00 00 00 00  returns 0x01 (0000ms, 2654ms total)
T54FC 013:099 JLINK_ReadMemU32(0xE0001038, 0x0001 Items, ...) -- CPU_ReadMem(4 bytes @ 0xE0001038) - Data: 00 02 00 00  returns 0x01 (0001ms, 2655ms total)
T54FC 013:100 JLINK_ReadMemU32(0xE0001048, 0x0001 Items, ...) -- CPU_ReadMem(4 bytes @ 0xE0001048) - Data: 00 00 00 00  returns 0x01 (0000ms, 2655ms total)
T54FC 013:100 JLINK_ReadMemU32(0xE0001058, 0x0001 Items, ...) -- CPU_ReadMem(4 bytes @ 0xE0001058) - Data: 00 00 00 00  returns 0x01 (0001ms, 2656ms total)
T54FC 013:101 JLINK_ReadReg(R0)  returns 0x20001FC8 (0000ms, 2656ms total)
T54FC 013:101 JLINK_ReadReg(R1)  returns 0x20000018 (0000ms, 2656ms total)
T54FC 013:101 JLINK_ReadReg(R2)  returns 0x20000E9C (0000ms, 2656ms total)
T54FC 013:101 JLINK_ReadReg(R3)  returns 0x00000002 (0000ms, 2656ms total)
T54FC 013:101 JLINK_ReadReg(R4)  returns 0x00000000 (0000ms, 2656ms total)
T54FC 013:101 JLINK_ReadReg(R5)  returns 0x20004B48 (0000ms, 2656ms total)
T54FC 013:101 JLINK_ReadReg(R6)  returns 0x00000000 (0000ms, 2656ms total)
T54FC 013:101 JLINK_ReadReg(R7)  returns 0x00000000 (0000ms, 2656ms total)
T54FC 013:101 JLINK_ReadReg(R8)  returns 0x00000000 (0000ms, 2656ms total)
T54FC 013:101 JLINK_ReadReg(R9)  returns 0x00000000 (0000ms, 2656ms total)
T54FC 013:101 JLINK_ReadReg(R10)  returns 0x0800F4BC (0000ms, 2656ms total)
T54FC 013:101 JLINK_ReadReg(R11)  returns 0x00000000 (0000ms, 2656ms total)
T54FC 013:101 JLINK_ReadReg(R12)  returns 0x00000000 (0000ms, 2656ms total)
T54FC 013:101 JLINK_ReadReg(R13 (SP))  returns 0x200051A8 (0000ms, 2656ms total)
T54FC 013:101 JLINK_ReadReg(R14)  returns 0x08008A23 (0000ms, 2656ms total)
T54FC 013:101 JLINK_ReadReg(R15 (PC))  returns 0x08008820 (0000ms, 2656ms total)
T54FC 013:101 JLINK_ReadReg(XPSR)  returns 0x61000000 (0000ms, 2656ms total)
T54FC 013:101 JLINK_ReadReg(MSP)  returns 0x200051A8 (0000ms, 2656ms total)
T54FC 013:101 JLINK_ReadReg(PSP)  returns 0x00000000 (0000ms, 2656ms total)
T54FC 013:101 JLINK_ReadReg(CFBP)  returns 0x04005000 (0000ms, 2656ms total)
T54FC 013:101 JLINK_ReadReg(FPSCR)  returns 0x03000010 (0003ms, 2659ms total)
T54FC 013:104 JLINK_ReadReg(FPS0)  returns 0x44440000 (0000ms, 2659ms total)
T54FC 013:104 JLINK_ReadReg(FPS1)  returns 0x437A0000 (0000ms, 2659ms total)
T54FC 013:104 JLINK_ReadReg(FPS2)  returns 0x4048B439 (0000ms, 2659ms total)
T54FC 013:104 JLINK_ReadReg(FPS3)  returns 0x00000000 (0000ms, 2659ms total)
T54FC 013:104 JLINK_ReadReg(FPS4)  returns 0x00000000 (0000ms, 2659ms total)
T54FC 013:104 JLINK_ReadReg(FPS5)  returns 0x00000000 (0000ms, 2659ms total)
T54FC 013:104 JLINK_ReadReg(FPS6)  returns 0x00000000 (0000ms, 2659ms total)
T54FC 013:104 JLINK_ReadReg(FPS7)  returns 0x00000000 (0000ms, 2659ms total)
T54FC 013:104 JLINK_ReadReg(FPS8)  returns 0x00000000 (0000ms, 2659ms total)
T54FC 013:104 JLINK_ReadReg(FPS9)  returns 0x00000000 (0000ms, 2659ms total)
T54FC 013:104 JLINK_ReadReg(FPS10)  returns 0x00000000 (0000ms, 2659ms total)
T54FC 013:104 JLINK_ReadReg(FPS11)  returns 0x00000000 (0000ms, 2659ms total)
T54FC 013:104 JLINK_ReadReg(FPS12)  returns 0x00000000 (0000ms, 2659ms total)
T54FC 013:104 JLINK_ReadReg(FPS13)  returns 0x00000000 (0000ms, 2659ms total)
T54FC 013:104 JLINK_ReadReg(FPS14)  returns 0x00000000 (0000ms, 2659ms total)
T54FC 013:104 JLINK_ReadReg(FPS15)  returns 0x00000000 (0000ms, 2659ms total)
T54FC 013:104 JLINK_ReadReg(FPS16)  returns 0x00000000 (0000ms, 2659ms total)
T54FC 013:104 JLINK_ReadReg(FPS17)  returns 0x00000000 (0000ms, 2659ms total)
T54FC 013:104 JLINK_ReadReg(FPS18)  returns 0x00000000 (0000ms, 2659ms total)
T54FC 013:104 JLINK_ReadReg(FPS19)  returns 0x00000000 (0000ms, 2659ms total)
T54FC 013:104 JLINK_ReadReg(FPS20)  returns 0x00000000 (0000ms, 2659ms total)
T54FC 013:104 JLINK_ReadReg(FPS21)  returns 0x00000000 (0000ms, 2659ms total)
T54FC 013:104 JLINK_ReadReg(FPS22)  returns 0x00000000 (0000ms, 2659ms total)
T54FC 013:104 JLINK_ReadReg(FPS23)  returns 0x00000000 (0000ms, 2659ms total)
T54FC 013:104 JLINK_ReadReg(FPS24)  returns 0x00000000 (0000ms, 2659ms total)
T54FC 013:104 JLINK_ReadReg(FPS25)  returns 0x00000000 (0000ms, 2659ms total)
T54FC 013:104 JLINK_ReadReg(FPS26)  returns 0x00000000 (0000ms, 2659ms total)
T54FC 013:104 JLINK_ReadReg(FPS27)  returns 0x00000000 (0000ms, 2659ms total)
T54FC 013:104 JLINK_ReadReg(FPS28)  returns 0x00000000 (0000ms, 2659ms total)
T54FC 013:104 JLINK_ReadReg(FPS29)  returns 0x00000000 (0000ms, 2659ms total)
T54FC 013:104 JLINK_ReadReg(FPS30)  returns 0x00000000 (0000ms, 2659ms total)
T54FC 013:104 JLINK_ReadReg(FPS31)  returns 0x00000000 (0000ms, 2659ms total)
T54FC 013:104 JLINK_ReadMemEx(0x2000035C, 0x0004 Bytes, ..., Flags = 0x02000000) -- CPU_ReadMem(64 bytes @ 0x20000340) -- Updating C cache (64 bytes @ 0x20000340) -- Read from C cache (4 bytes @ 0x2000035C) - Data: 07 00 00 00  returns 0x04 (0001ms, 2660ms total)
T54FC 013:105 JLINK_ReadMemEx(0x2000034C, 0x0004 Bytes, ..., Flags = 0x02000000) -- Read from C cache (4 bytes @ 0x2000034C) - Data: 90 18 00 20  returns 0x04 (0000ms, 2660ms total)
T57F4 013:105 JLINK_ReadMemEx(0xE000ED28, 0x0004 Bytes, ..., Flags = 0x02000000) -- CPU_ReadMem(4 bytes @ 0xE000ED28) - Data: 00 00 00 00  returns 0x04 (0001ms, 2661ms total)
T57F4 013:106 JLINK_ReadMemU32(0xE0001004, 0x0001 Items, ...) - Data: E3 98 13 06  returns 0x01 (0000ms, 2661ms total)
T57F4 013:108 JLINK_ReadMemEx(0x20000040, 0x0004 Bytes, ..., Flags = 0x02000000) -- CPU_ReadMem(64 bytes @ 0x20000040) -- Updating C cache (64 bytes @ 0x20000040) -- Read from C cache (4 bytes @ 0x20000040) - Data: 00 00 00 00  returns 0x04 (0001ms, 2662ms total)
T57F4 013:110 JLINK_ReadMemEx(0x2000003C, 0x0004 Bytes, ..., Flags = 0x02000000) -- CPU_ReadMem(64 bytes @ 0x20000000) -- Updating C cache (64 bytes @ 0x20000000) -- Read from C cache (4 bytes @ 0x2000003C) - Data: 00 00 00 00  returns 0x04 (0001ms, 2663ms total)
T54FC 014:183 JLINK_ReadMemEx(0x08008820, 0x0002 Bytes, ..., Flags = 0x02000000) -- CPU_ReadMem(64 bytes @ 0x08008800) -- Updating C cache (64 bytes @ 0x08008800) -- Read from C cache (2 bytes @ 0x08008820) - Data: 00 F0  returns 0x02 (0000ms, 2663ms total)
T54FC 014:183 JLINK_Step() -- Read from C cache (2 bytes @ 0x08008820) -- CPU_ReadMem(4 bytes @ 0xE000ED18) -- CPU_WriteMem(4 bytes @ 0xE000ED18) -- CPU_ReadMem(4 bytes @ 0xE000ED18) -- CPU_WriteMem(4 bytes @ 0xE000ED18) -- Read from C cache (2 bytes @ 0x08008822) -- Simulated  returns 0x00 (0002ms, 2665ms total)
T54FC 014:185 JLINK_ReadReg(R15 (PC))  returns 0x080088B0 (0000ms, 2665ms total)
T54FC 014:185 JLINK_ReadReg(XPSR)  returns 0x61000000 (0000ms, 2665ms total)
T54FC 014:185 JLINK_SetBPEx(Addr = 0x08008820, Type = 0xFFFFFFF2)  returns 0x0000000C (0000ms, 2665ms total)
T54FC 014:185 JLINK_SetBPEx(Addr = 0x08004C14, Type = 0xFFFFFFF2)  returns 0x0000000D (0000ms, 2665ms total)
T54FC 014:185 JLINK_Go() -- CPU_WriteMem(4 bytes @ 0xE0002000) -- CPU_WriteMem(4 bytes @ 0xE0002000) -- CPU_ReadMem(4 bytes @ 0xE0001000) -- CPU_WriteMem(4 bytes @ 0xE0001004) (0002ms, 2667ms total)
T54FC 014:288 JLINK_IsHalted()  returns TRUE (0002ms, 2669ms total)
T54FC 014:290 JLINK_Halt()  returns 0x00 (0000ms, 2667ms total)
T54FC 014:290 JLINK_IsHalted()  returns TRUE (0000ms, 2667ms total)
T54FC 014:290 JLINK_IsHalted()  returns TRUE (0000ms, 2667ms total)
T54FC 014:290 JLINK_IsHalted()  returns TRUE (0000ms, 2667ms total)
T54FC 014:290 JLINK_ReadReg(R15 (PC))  returns 0x08004C14 (0000ms, 2667ms total)
T54FC 014:290 JLINK_ReadReg(XPSR)  returns 0x21000000 (0000ms, 2667ms total)
T54FC 014:290 JLINK_ClrBPEx(BPHandle = 0x0000000C)  returns 0x00 (0000ms, 2667ms total)
T54FC 014:291 JLINK_ClrBPEx(BPHandle = 0x0000000D)  returns 0x00 (0000ms, 2667ms total)
T54FC 014:291 JLINK_ReadMemU32(0xE000ED30, 0x0001 Items, ...) -- CPU_ReadMem(4 bytes @ 0xE000ED30) - Data: 02 00 00 00  returns 0x01 (0000ms, 2667ms total)
T54FC 014:291 JLINK_ReadMemU32(0xE0001028, 0x0001 Items, ...) -- CPU_ReadMem(4 bytes @ 0xE0001028) - Data: 00 00 00 00  returns 0x01 (0001ms, 2668ms total)
T54FC 014:292 JLINK_ReadMemU32(0xE0001038, 0x0001 Items, ...) -- CPU_ReadMem(4 bytes @ 0xE0001038) - Data: 00 02 00 00  returns 0x01 (0000ms, 2668ms total)
T54FC 014:292 JLINK_ReadMemU32(0xE0001048, 0x0001 Items, ...) -- CPU_ReadMem(4 bytes @ 0xE0001048) - Data: 00 00 00 00  returns 0x01 (0000ms, 2668ms total)
T54FC 014:292 JLINK_ReadMemU32(0xE0001058, 0x0001 Items, ...) -- CPU_ReadMem(4 bytes @ 0xE0001058) - Data: 00 00 00 00  returns 0x01 (0000ms, 2668ms total)
T54FC 014:292 JLINK_ReadReg(R0)  returns 0x20000130 (0000ms, 2668ms total)
T54FC 014:292 JLINK_ReadReg(R1)  returns 0x2000002C (0000ms, 2668ms total)
T54FC 014:292 JLINK_ReadReg(R2)  returns 0x20000630 (0000ms, 2668ms total)
T54FC 014:292 JLINK_ReadReg(R3)  returns 0x00000002 (0000ms, 2668ms total)
T54FC 014:292 JLINK_ReadReg(R4)  returns 0x00000000 (0000ms, 2668ms total)
T54FC 014:292 JLINK_ReadReg(R5)  returns 0x00000000 (0000ms, 2668ms total)
T54FC 014:292 JLINK_ReadReg(R6)  returns 0x00000000 (0001ms, 2669ms total)
T54FC 014:293 JLINK_ReadReg(R7)  returns 0x00000000 (0000ms, 2669ms total)
T54FC 014:293 JLINK_ReadReg(R8)  returns 0x00000000 (0000ms, 2669ms total)
T54FC 014:293 JLINK_ReadReg(R9)  returns 0x00000000 (0000ms, 2669ms total)
T54FC 014:293 JLINK_ReadReg(R10)  returns 0x00000000 (0000ms, 2669ms total)
T54FC 014:293 JLINK_ReadReg(R11)  returns 0x00000000 (0000ms, 2669ms total)
T54FC 014:293 JLINK_ReadReg(R12)  returns 0x00000000 (0000ms, 2669ms total)
T54FC 014:293 JLINK_ReadReg(R13 (SP))  returns 0x20001870 (0000ms, 2669ms total)
T54FC 014:293 JLINK_ReadReg(R14)  returns 0x080047B9 (0000ms, 2669ms total)
T54FC 014:293 JLINK_ReadReg(R15 (PC))  returns 0x08004C14 (0000ms, 2669ms total)
T54FC 014:293 JLINK_ReadReg(XPSR)  returns 0x21000000 (0000ms, 2669ms total)
T54FC 014:293 JLINK_ReadReg(MSP)  returns 0x20005188 (0000ms, 2669ms total)
T54FC 014:293 JLINK_ReadReg(PSP)  returns 0x20001870 (0000ms, 2669ms total)
T54FC 014:293 JLINK_ReadReg(CFBP)  returns 0x06000000 (0000ms, 2669ms total)
T54FC 014:293 JLINK_ReadReg(FPSCR)  returns 0x00000000 (0003ms, 2672ms total)
T54FC 014:296 JLINK_ReadReg(FPS0)  returns 0x461C4000 (0000ms, 2672ms total)
T54FC 014:296 JLINK_ReadReg(FPS1)  returns 0x453B8000 (0000ms, 2672ms total)
T54FC 014:296 JLINK_ReadReg(FPS2)  returns 0x00000000 (0000ms, 2672ms total)
T54FC 014:296 JLINK_ReadReg(FPS3)  returns 0x00000000 (0000ms, 2672ms total)
T54FC 014:296 JLINK_ReadReg(FPS4)  returns 0x00000000 (0000ms, 2672ms total)
T54FC 014:296 JLINK_ReadReg(FPS5)  returns 0x00000000 (0000ms, 2672ms total)
T54FC 014:296 JLINK_ReadReg(FPS6)  returns 0x00000000 (0000ms, 2672ms total)
T54FC 014:296 JLINK_ReadReg(FPS7)  returns 0x00000000 (0000ms, 2672ms total)
T54FC 014:296 JLINK_ReadReg(FPS8)  returns 0x00000000 (0000ms, 2672ms total)
T54FC 014:296 JLINK_ReadReg(FPS9)  returns 0x00000000 (0000ms, 2672ms total)
T54FC 014:296 JLINK_ReadReg(FPS10)  returns 0x00000000 (0000ms, 2672ms total)
T54FC 014:296 JLINK_ReadReg(FPS11)  returns 0x00000000 (0000ms, 2672ms total)
T54FC 014:296 JLINK_ReadReg(FPS12)  returns 0x00000000 (0000ms, 2672ms total)
T54FC 014:296 JLINK_ReadReg(FPS13)  returns 0x00000000 (0000ms, 2672ms total)
T54FC 014:296 JLINK_ReadReg(FPS14)  returns 0x00000000 (0000ms, 2672ms total)
T54FC 014:296 JLINK_ReadReg(FPS15)  returns 0x00000000 (0000ms, 2672ms total)
T54FC 014:296 JLINK_ReadReg(FPS16)  returns 0x00000000 (0000ms, 2672ms total)
T54FC 014:296 JLINK_ReadReg(FPS17)  returns 0x00000000 (0000ms, 2672ms total)
T54FC 014:296 JLINK_ReadReg(FPS18)  returns 0x00000000 (0000ms, 2672ms total)
T54FC 014:296 JLINK_ReadReg(FPS19)  returns 0x00000000 (0000ms, 2672ms total)
T54FC 014:296 JLINK_ReadReg(FPS20)  returns 0x00000000 (0000ms, 2672ms total)
T54FC 014:296 JLINK_ReadReg(FPS21)  returns 0x00000000 (0000ms, 2672ms total)
T54FC 014:296 JLINK_ReadReg(FPS22)  returns 0x00000000 (0000ms, 2672ms total)
T54FC 014:296 JLINK_ReadReg(FPS23)  returns 0x00000000 (0000ms, 2672ms total)
T54FC 014:296 JLINK_ReadReg(FPS24)  returns 0x00000000 (0000ms, 2672ms total)
